T5590 000:008.251   SEGGER J-Link V8.18 Log File
T5590 000:008.390   DLL Compiled: Mar  5 2025 14:38:20
T5590 000:008.397   Logging started @ 2025-03-23 12:23
T5590 000:008.403   Process: D:\A__MCU_Creator\Keli\core\UV4\UV4.exe
T5590 000:008.414 - 8.408ms 
T5590 000:008.424 JLINK_SetWarnOutHandler(...)
T5590 000:008.432 - 0.010ms 
T5590 000:008.443 JLINK_OpenEx(...)
T5590 000:013.296   Firmware: J-Link J-Link V21 compiled Jun 26 2017 10:35:16
T5590 000:014.669   Firmware: J-Link J-Link V21 compiled Jun 26 2017 10:35:16
T5590 000:027.800   Hardware: V1.00
T5590 000:027.832   S/N: 779116831
T5590 000:027.846   OEM: SEGGER
T5590 000:027.859   Feature(s): None
T5590 000:029.555   Bootloader: (FW returned invalid version)
T5590 000:031.051   TELNET listener socket opened on port 19021
T5590 000:031.186   WEBSRV WEBSRV_Init(): Starting webserver thread(s)
T5590 000:031.484   WEBSRV Webserver running on local port 19080
T5590 000:031.583   Looking for J-Link GUI Server exe at: D:\A__MCU_Creator\Keli\core\ARM\Segger\JLinkGUIServer.exe
T5590 000:031.645   Looking for J-Link GUI Server exe at: D:\A__MCU_Creator\J_link\JLink_V818\JLinkGUIServer.exe
T5590 000:031.660   Forking J-Link GUI Server: D:\A__MCU_Creator\J_link\JLink_V818\JLinkGUIServer.exe
T5590 000:109.577   J-Link GUI Server info: "J-Link GUI server V8.18 "
T5590 000:114.296 - 105.841ms returns "O.K."
T5590 000:114.342 JLINK_GetEmuCaps()
T5590 000:114.354 - 0.009ms returns 0x98EA5A33
T5590 000:114.366 JLINK_TIF_GetAvailable(...)
T5590 000:114.839 - 0.473ms 
T5590 000:114.871 JLINK_SetErrorOutHandler(...)
T5590 000:114.878 - 0.007ms 
T5590 000:114.911 JLINK_ExecCommand("ProjectFile = "D:\A__MCU_Creator\project\c8t6_lighten\test_light\MDK-ARM\JLinkSettings.ini"", ...). 
T5590 000:132.722   Ref file found at: D:\A__MCU_Creator\Keli\core\ARM\Segger\JLinkDevices.ref
T5590 000:132.865   REF file references invalid XML file: D:\A__MCU_Creator\J_link\JLink_V818\JLinkDevices.xml
T5590 000:134.002 - 19.092ms returns 0x00
T5590 000:138.096 JLINK_ExecCommand("Device = STM32F103C8", ...). 
T5590 000:141.810   Device "STM32F103C8" selected.
T5590 000:142.171 - 4.051ms returns 0x00
T5590 000:142.194 JLINK_ExecCommand("DisableConnectionTimeout", ...). 
T5590 000:142.210   ERROR: Unknown command
T5590 000:142.219 - 0.016ms returns 0x01
T5590 000:142.229 JLINK_GetHardwareVersion()
T5590 000:142.235 - 0.006ms returns 10000
T5590 000:142.244 JLINK_GetDLLVersion()
T5590 000:142.249 - 0.005ms returns 81800
T5590 000:142.257 JLINK_GetOEMString(...)
T5590 000:142.264 JLINK_GetFirmwareString(...)
T5590 000:142.271 - 0.006ms 
T5590 000:148.745 JLINK_GetDLLVersion()
T5590 000:148.776 - 0.030ms returns 81800
T5590 000:148.789 JLINK_GetCompileDateTime()
T5590 000:148.798 - 0.009ms 
T5590 000:151.545 JLINK_GetFirmwareString(...)
T5590 000:151.570 - 0.024ms 
T5590 000:153.504 JLINK_GetHardwareVersion()
T5590 000:153.524 - 0.019ms returns 10000
T5590 000:156.233 JLINK_GetSN()
T5590 000:156.254 - 0.020ms returns 779116831
T5590 000:158.552 JLINK_GetOEMString(...)
T5590 000:160.365 JLINK_TIF_Select(JLINKARM_TIF_SWD)
T5590 000:161.872 - 1.508ms returns 0x00
T5590 000:161.893 JLINK_HasError()
T5590 000:161.919 JLINK_SetSpeed(50000)
T5590 000:162.260 - 0.342ms 
T5590 000:162.278 JLINK_GetId()
T5590 000:164.978   InitTarget() start
T5590 000:164.998    J-Link Script File: Executing InitTarget()
T5590 000:168.142   SWD selected. Executing JTAG -> SWD switching sequence.
T5590 000:173.339   DAP initialized successfully.
T5590 000:184.934   InitTarget() end - Took 17.1ms
T5590 000:188.033   Found SW-DP with ID 0x4BA01477
T5590 000:190.472   Old FW that does not support reading DPIDR via DAP jobs
T5590 000:193.545   DPv0 detected
T5590 000:195.769   CoreSight SoC-400 or earlier
T5590 000:198.281   Scanning AP map to find all available APs
T5590 000:201.912   AP[1]: Stopped AP scan as end of AP map has been reached
T5590 000:204.332   AP[0]: AHB-AP (IDR: 0x24770011, ADDR: 0x00000000)
T5590 000:206.170   Iterating through AP map to find AHB-AP to use
T5590 000:210.013   AP[0]: Core found
T5590 000:211.913   AP[0]: AHB-AP ROM base: 0xE00FF000
T5590 000:214.891   CPUID register: 0x412FC231. Implementer code: 0x41 (ARM)
T5590 000:216.984   Found Cortex-M3 r2p1, Little endian.
T5590 000:218.016   -- Max. mem block: 0x00003400
T5590 000:218.847   CPU_ReadMem(4 bytes @ 0xE000EDF0)
T5590 000:219.330   CPU_ReadMem(4 bytes @ 0xE0002000)
T5590 000:222.232   FPUnit: 6 code (BP) slots and 2 literal slots
T5590 000:222.253   CPU_ReadMem(4 bytes @ 0xE000EDFC)
T5590 000:222.899   CPU_WriteMem(4 bytes @ 0xE000EDFC)
T5590 000:223.464   CPU_ReadMem(4 bytes @ 0xE0001000)
T5590 000:224.175   CPU_WriteMem(4 bytes @ 0xE0001000)
T5590 000:224.711   CPU_ReadMem(4 bytes @ 0xE000ED88)
T5590 000:225.196   CPU_WriteMem(4 bytes @ 0xE000ED88)
T5590 000:225.714   CPU_ReadMem(4 bytes @ 0xE000ED88)
T5590 000:226.218   CPU_WriteMem(4 bytes @ 0xE000ED88)
T5590 000:229.014   CoreSight components:
T5590 000:231.308   ROMTbl[0] @ E00FF000
T5590 000:231.334   CPU_ReadMem(64 bytes @ 0xE00FF000)
T5590 000:232.182   CPU_ReadMem(32 bytes @ 0xE000EFE0)
T5590 000:235.706   [0][0]: E000E000 CID B105E00D PID 000BB000 SCS
T5590 000:235.737   CPU_ReadMem(32 bytes @ 0xE0001FE0)
T5590 000:238.376   [0][1]: E0001000 CID B105E00D PID 003BB002 DWT
T5590 000:238.398   CPU_ReadMem(32 bytes @ 0xE0002FE0)
T5590 000:241.944   [0][2]: E0002000 CID B105E00D PID 002BB003 FPB
T5590 000:241.980   CPU_ReadMem(32 bytes @ 0xE0000FE0)
T5590 000:244.953   [0][3]: E0000000 CID B105E00D PID 003BB001 ITM
T5590 000:244.974   CPU_ReadMem(32 bytes @ 0xE0040FE0)
T5590 000:248.222   [0][4]: E0040000 CID B105900D PID 003BB923 TPIU-Lite
T5590 000:248.746 - 86.466ms returns 0x2BA01477
T5590 000:248.804 JLINK_GetDLLVersion()
T5590 000:248.811 - 0.006ms returns 81800
T5590 000:248.821 JLINK_CORE_GetFound()
T5590 000:248.828 - 0.006ms returns 0x30000FF
T5590 000:248.835 JLINK_GetDebugInfo(0x100 = JLINKARM_ROM_TABLE_ADDR_INDEX)
T5590 000:248.844   Value=0xE00FF000
T5590 000:248.853 - 0.018ms returns 0
T5590 000:250.806 JLINK_GetDebugInfo(0x100 = JLINKARM_ROM_TABLE_ADDR_INDEX)
T5590 000:250.824   Value=0xE00FF000
T5590 000:250.835 - 0.029ms returns 0
T5590 000:250.844 JLINK_GetDebugInfo(0x101 = JLINKARM_DEBUG_INFO_ETM_ADDR_INDEX)
T5590 000:250.851   Value=0x00000000
T5590 000:250.861 - 0.017ms returns 0
T5590 000:250.870 JLINK_ReadMemEx(0xE0041FF0, 0x10 Bytes, Flags = 0x02000004)
T5590 000:250.897   CPU_ReadMem(16 bytes @ 0xE0041FF0)
T5590 000:251.571   Data:  00 00 00 00 00 00 00 00 00 00 00 00 00 00 00 00
T5590 000:251.600 - 0.728ms returns 16 (0x10)
T5590 000:251.616 JLINK_GetDebugInfo(0x102 = JLINKARM_DEBUG_INFO_MTB_ADDR_INDEX)
T5590 000:251.626   Value=0x00000000
T5590 000:251.639 - 0.024ms returns 0
T5590 000:251.651 JLINK_GetDebugInfo(0x103 = JLINKARM_DEBUG_INFO_TPIU_ADDR_INDEX)
T5590 000:251.661   Value=0xE0040000
T5590 000:251.681 - 0.030ms returns 0
T5590 000:251.697 JLINK_GetDebugInfo(0x104 = JLINKARM_DEBUG_INFO_ITM_ADDR_INDEX)
T5590 000:251.709   Value=0xE0000000
T5590 000:251.726 - 0.030ms returns 0
T5590 000:251.742 JLINK_GetDebugInfo(0x105 = JLINKARM_DEBUG_INFO_DWT_ADDR_INDEX)
T5590 000:251.756   Value=0xE0001000
T5590 000:251.772 - 0.031ms returns 0
T5590 000:251.784 JLINK_GetDebugInfo(0x106 = JLINKARM_DEBUG_INFO_FPB_ADDR_INDEX)
T5590 000:251.793   Value=0xE0002000
T5590 000:251.806 - 0.022ms returns 0
T5590 000:251.826 JLINK_GetDebugInfo(0x107 = JLINKARM_DEBUG_INFO_NVIC_ADDR_INDEX)
T5590 000:251.835   Value=0xE000E000
T5590 000:251.848 - 0.022ms returns 0
T5590 000:251.859 JLINK_GetDebugInfo(0x10C = JLINKARM_DEBUG_INFO_DBG_ADDR_INDEX)
T5590 000:251.868   Value=0xE000EDF0
T5590 000:251.881 - 0.022ms returns 0
T5590 000:251.892 JLINK_GetDebugInfo(0x01 = Unknown)
T5590 000:251.902   Value=0x00000000
T5590 000:251.915 - 0.022ms returns 0
T5590 000:251.930 JLINK_ReadMemU32(0xE000ED00, 0x1 Items)
T5590 000:251.947   CPU_ReadMem(4 bytes @ 0xE000ED00)
T5590 000:252.590   Data:  31 C2 2F 41
T5590 000:252.607   Debug reg: CPUID
T5590 000:252.616 - 0.686ms returns 1 (0x1)
T5590 000:252.680 JLINK_GetDebugInfo(0x10F = JLINKARM_DEBUG_INFO_HAS_CORTEX_M_SECURITY_EXT_INDEX)
T5590 000:252.689   Value=0x00000000
T5590 000:252.697 - 0.017ms returns 0
T5590 000:252.705 JLINK_HasError()
T5590 000:252.713 JLINK_SetResetType(JLINKARM_CM3_RESET_TYPE_NORMAL)
T5590 000:252.719 - 0.006ms returns JLINKARM_CM3_RESET_TYPE_NORMAL
T5590 000:252.726 JLINK_Reset()
T5590 000:252.737   JLINK_GetResetTypeDesc
T5590 000:252.742   - 0.006ms 
T5590 000:254.777   Reset type: NORMAL (https://wiki.segger.com/J-Link_Reset_Strategies)
T5590 000:254.800   CPU is running
T5590 000:254.812   CPU_WriteMem(4 bytes @ 0xE000EDF0)
T5590 000:255.345   CPU is running
T5590 000:255.356   CPU_WriteMem(4 bytes @ 0xE000EDFC)
T5590 000:257.950   Reset: Halt core after reset via DEMCR.VC_CORERESET.
T5590 000:260.652   Reset: Reset device via AIRCR.SYSRESETREQ.
T5590 000:260.672   CPU is running
T5590 000:260.684   CPU_WriteMem(4 bytes @ 0xE000ED0C)
T5590 000:314.608   CPU_ReadMem(4 bytes @ 0xE000EDF0)
T5590 000:315.226   CPU_ReadMem(4 bytes @ 0xE000EDF0)
T5590 000:319.018   CPU_WriteMem(4 bytes @ 0xE000EDFC)
T5590 000:325.968   CPU_ReadMem(4 bytes @ 0xE000EDF0)
T5590 000:329.682   CPU_WriteMem(4 bytes @ 0xE0002000)
T5590 000:330.219   CPU_ReadMem(4 bytes @ 0xE000EDFC)
T5590 000:330.729   CPU_ReadMem(4 bytes @ 0xE0001000)
T5590 000:331.348 - 78.620ms 
T5590 000:331.429 JLINK_Halt()
T5590 000:331.442 - 0.012ms returns 0x00
T5590 000:331.455 JLINK_ReadMemU32(0xE000EDF0, 0x1 Items)
T5590 000:331.474   CPU_ReadMem(4 bytes @ 0xE000EDF0)
T5590 000:332.107   Data:  03 00 03 00
T5590 000:332.126   Debug reg: DHCSR
T5590 000:332.142 - 0.686ms returns 1 (0x1)
T5590 000:332.156 JLINK_WriteU32(0xE000EDF0, 0xA05F0003)
T5590 000:332.165   Debug reg: DHCSR
T5590 000:332.545   CPU_WriteMem(4 bytes @ 0xE000EDF0)
T5590 000:333.176 - 1.020ms returns 0 (0x00000000)
T5590 000:333.193 JLINK_WriteU32(0xE000EDFC, 0x01000000)
T5590 000:333.200   Debug reg: DEMCR
T5590 000:333.213   CPU_WriteMem(4 bytes @ 0xE000EDFC)
T5590 000:333.922 - 0.729ms returns 0 (0x00000000)
T5590 000:344.688 JLINK_GetHWStatus(...)
T5590 000:345.153 - 0.463ms returns 0
T5590 000:355.123 JLINK_GetNumBPUnits(Type = 0xFFFFFF00)
T5590 000:355.154 - 0.030ms returns 0x06
T5590 000:355.162 JLINK_GetNumBPUnits(Type = 0xF0)
T5590 000:355.169 - 0.006ms returns 0x2000
T5590 000:355.176 JLINK_GetNumWPUnits()
T5590 000:355.181 - 0.005ms returns 4
T5590 000:360.953 JLINK_GetSpeed()
T5590 000:360.979 - 0.025ms returns 4000
T5590 000:364.967 JLINK_ReadMemU32(0xE000E004, 0x1 Items)
T5590 000:365.006   CPU_ReadMem(4 bytes @ 0xE000E004)
T5590 000:365.592   Data:  01 00 00 00
T5590 000:365.609 - 0.641ms returns 1 (0x1)
T5590 000:365.618 JLINK_ReadMemU32(0xE000E004, 0x1 Items)
T5590 000:365.627   CPU_ReadMem(4 bytes @ 0xE000E004)
T5590 000:366.201   Data:  01 00 00 00
T5590 000:366.217 - 0.599ms returns 1 (0x1)
T5590 000:366.231 JLINK_WriteMemEx(0xE0001000, 0x0000001C Bytes, Flags = 0x02000004)
T5590 000:366.241   Data:  01 00 00 00 00 00 00 00 00 00 00 00 00 00 00 00 ...
T5590 000:366.261   CPU_WriteMem(28 bytes @ 0xE0001000)
T5590 000:366.977 - 0.746ms returns 0x1C
T5590 000:366.994 JLINK_Halt()
T5590 000:367.004 - 0.009ms returns 0x00
T5590 000:367.015 JLINK_IsHalted()
T5590 000:367.026 - 0.010ms returns TRUE
T5590 000:370.870 JLINK_WriteMem(0x20000000, 0x164 Bytes, ...)
T5590 000:370.886   Data:  00 BE 0A E0 0D 78 2D 06 68 40 08 24 40 00 00 D3 ...
T5590 000:371.178   CPU_WriteMem(356 bytes @ 0x20000000)
T5590 000:373.688 - 2.816ms returns 0x164
T5590 000:373.773 JLINK_HasError()
T5590 000:373.791 JLINK_WriteReg(R0, 0x08000000)
T5590 000:373.806 - 0.015ms returns 0
T5590 000:373.819 JLINK_WriteReg(R1, 0x007A1200)
T5590 000:373.832 - 0.012ms returns 0
T5590 000:373.845 JLINK_WriteReg(R2, 0x00000001)
T5590 000:373.875 - 0.029ms returns 0
T5590 000:373.889 JLINK_WriteReg(R3, 0x00000000)
T5590 000:373.901 - 0.012ms returns 0
T5590 000:373.913 JLINK_WriteReg(R4, 0x00000000)
T5590 000:373.923 - 0.010ms returns 0
T5590 000:373.935 JLINK_WriteReg(R5, 0x00000000)
T5590 000:373.960 - 0.024ms returns 0
T5590 000:373.973 JLINK_WriteReg(R6, 0x00000000)
T5590 000:373.987 - 0.013ms returns 0
T5590 000:374.000 JLINK_WriteReg(R7, 0x00000000)
T5590 000:374.012 - 0.012ms returns 0
T5590 000:374.415 JLINK_WriteReg(R8, 0x00000000)
T5590 000:374.438 - 0.412ms returns 0
T5590 000:374.450 JLINK_WriteReg(R9, 0x20000160)
T5590 000:374.458 - 0.008ms returns 0
T5590 000:374.467 JLINK_WriteReg(R10, 0x00000000)
T5590 000:374.473 - 0.006ms returns 0
T5590 000:374.479 JLINK_WriteReg(R11, 0x00000000)
T5590 000:374.485 - 0.005ms returns 0
T5590 000:374.492 JLINK_WriteReg(R12, 0x00000000)
T5590 000:374.498 - 0.005ms returns 0
T5590 000:374.505 JLINK_WriteReg(R13 (SP), 0x20001000)
T5590 000:374.511 - 0.006ms returns 0
T5590 000:374.518 JLINK_WriteReg(R14, 0x20000001)
T5590 000:374.524 - 0.005ms returns 0
T5590 000:374.535 JLINK_WriteReg(R15 (PC), 0x20000038)
T5590 000:374.540 - 0.010ms returns 0
T5590 000:374.547 JLINK_WriteReg(XPSR, 0x01000000)
T5590 000:374.553 - 0.005ms returns 0
T5590 000:374.560 JLINK_WriteReg(MSP, 0x20001000)
T5590 000:374.565 - 0.005ms returns 0
T5590 000:374.572 JLINK_WriteReg(PSP, 0x20001000)
T5590 000:374.578 - 0.005ms returns 0
T5590 000:374.585 JLINK_WriteReg(CFBP, 0x00000000)
T5590 000:374.590 - 0.006ms returns 0
T5590 000:374.598 JLINK_SetBPEx(Addr = 0x20000000, Type = 0xFFFFFFF2)
T5590 000:374.612   CPU_ReadMem(2 bytes @ 0x20000000)
T5590 000:375.224 - 0.626ms returns 0x00000001
T5590 000:375.242 JLINK_Go()
T5590 000:375.256   CPU_WriteMem(2 bytes @ 0x20000000)
T5590 000:375.851   CPU_ReadMem(4 bytes @ 0xE0001000)
T5590 000:376.322   CPU_WriteMem(4 bytes @ 0xE0002008)
T5590 000:376.333   CPU_WriteMem(4 bytes @ 0xE000200C)
T5590 000:376.341   CPU_WriteMem(4 bytes @ 0xE0002010)
T5590 000:376.350   CPU_WriteMem(4 bytes @ 0xE0002014)
T5590 000:376.358   CPU_WriteMem(4 bytes @ 0xE0002018)
T5590 000:376.366   CPU_WriteMem(4 bytes @ 0xE000201C)
T5590 000:377.980   CPU_WriteMem(4 bytes @ 0xE0001004)
T5590 000:383.816   Memory map 'after startup completion point' is active
T5590 000:383.837 - 8.594ms 
T5590 000:383.853 JLINK_IsHalted()
T5590 000:386.993   CPU_ReadMem(2 bytes @ 0x20000000)
T5590 000:387.592 - 3.739ms returns TRUE
T5590 000:387.617 JLINK_ReadReg(R15 (PC))
T5590 000:387.630 - 0.013ms returns 0x20000000
T5590 000:387.644 JLINK_ClrBPEx(BPHandle = 0x00000001)
T5590 000:387.654 - 0.010ms returns 0x00
T5590 000:387.668 JLINK_ReadReg(R0)
T5590 000:387.678 - 0.010ms returns 0x00000000
T5590 000:389.089 JLINK_HasError()
T5590 000:389.111 JLINK_WriteReg(R0, 0x08000000)
T5590 000:389.123 - 0.011ms returns 0
T5590 000:389.131 JLINK_WriteReg(R1, 0x00000400)
T5590 000:389.140 - 0.008ms returns 0
T5590 000:389.150 JLINK_WriteReg(R2, 0x000000FF)
T5590 000:389.158 - 0.008ms returns 0
T5590 000:389.167 JLINK_WriteReg(R3, 0x00000000)
T5590 000:389.174 - 0.007ms returns 0
T5590 000:389.181 JLINK_WriteReg(R4, 0x00000000)
T5590 000:389.187 - 0.005ms returns 0
T5590 000:389.196 JLINK_WriteReg(R5, 0x00000000)
T5590 000:389.204 - 0.008ms returns 0
T5590 000:389.214 JLINK_WriteReg(R6, 0x00000000)
T5590 000:389.222 - 0.008ms returns 0
T5590 000:389.231 JLINK_WriteReg(R7, 0x00000000)
T5590 000:389.238 - 0.007ms returns 0
T5590 000:389.247 JLINK_WriteReg(R8, 0x00000000)
T5590 000:389.256 - 0.008ms returns 0
T5590 000:389.265 JLINK_WriteReg(R9, 0x20000160)
T5590 000:389.273 - 0.008ms returns 0
T5590 000:389.282 JLINK_WriteReg(R10, 0x00000000)
T5590 000:389.288 - 0.006ms returns 0
T5590 000:389.295 JLINK_WriteReg(R11, 0x00000000)
T5590 000:389.301 - 0.005ms returns 0
T5590 000:389.307 JLINK_WriteReg(R12, 0x00000000)
T5590 000:389.313 - 0.005ms returns 0
T5590 000:389.320 JLINK_WriteReg(R13 (SP), 0x20001000)
T5590 000:389.326 - 0.006ms returns 0
T5590 000:389.333 JLINK_WriteReg(R14, 0x20000001)
T5590 000:389.339 - 0.005ms returns 0
T5590 000:389.346 JLINK_WriteReg(R15 (PC), 0x20000020)
T5590 000:389.352 - 0.005ms returns 0
T5590 000:389.358 JLINK_WriteReg(XPSR, 0x01000000)
T5590 000:389.364 - 0.005ms returns 0
T5590 000:389.379 JLINK_WriteReg(MSP, 0x20001000)
T5590 000:389.385 - 0.006ms returns 0
T5590 000:389.392 JLINK_WriteReg(PSP, 0x20001000)
T5590 000:389.398 - 0.005ms returns 0
T5590 000:389.405 JLINK_WriteReg(CFBP, 0x00000000)
T5590 000:389.411 - 0.006ms returns 0
T5590 000:389.420 JLINK_SetBPEx(Addr = 0x20000000, Type = 0xFFFFFFF2)
T5590 000:389.430 - 0.010ms returns 0x00000002
T5590 000:389.439 JLINK_Go()
T5590 000:389.458   CPU_ReadMem(4 bytes @ 0xE0001000)
T5590 000:393.219 - 3.778ms 
T5590 000:393.250 JLINK_IsHalted()
T5590 000:396.445   CPU_ReadMem(2 bytes @ 0x20000000)
T5590 000:396.962 - 3.712ms returns TRUE
T5590 000:396.973 JLINK_ReadReg(R15 (PC))
T5590 000:396.981 - 0.008ms returns 0x20000000
T5590 000:396.988 JLINK_ClrBPEx(BPHandle = 0x00000002)
T5590 000:396.995 - 0.006ms returns 0x00
T5590 000:397.002 JLINK_ReadReg(R0)
T5590 000:397.009 - 0.006ms returns 0x00000001
T5590 000:397.016 JLINK_HasError()
T5590 000:397.024 JLINK_WriteReg(R0, 0x08000000)
T5590 000:397.030 - 0.006ms returns 0
T5590 000:397.037 JLINK_WriteReg(R1, 0x00000400)
T5590 000:397.042 - 0.005ms returns 0
T5590 000:397.049 JLINK_WriteReg(R2, 0x000000FF)
T5590 000:397.055 - 0.005ms returns 0
T5590 000:397.062 JLINK_WriteReg(R3, 0x00000000)
T5590 000:397.067 - 0.005ms returns 0
T5590 000:397.074 JLINK_WriteReg(R4, 0x00000000)
T5590 000:397.080 - 0.005ms returns 0
T5590 000:397.086 JLINK_WriteReg(R5, 0x00000000)
T5590 000:397.092 - 0.006ms returns 0
T5590 000:397.101 JLINK_WriteReg(R6, 0x00000000)
T5590 000:397.109 - 0.007ms returns 0
T5590 000:397.116 JLINK_WriteReg(R7, 0x00000000)
T5590 000:397.121 - 0.005ms returns 0
T5590 000:397.128 JLINK_WriteReg(R8, 0x00000000)
T5590 000:397.134 - 0.005ms returns 0
T5590 000:397.140 JLINK_WriteReg(R9, 0x20000160)
T5590 000:397.146 - 0.005ms returns 0
T5590 000:397.153 JLINK_WriteReg(R10, 0x00000000)
T5590 000:397.159 - 0.005ms returns 0
T5590 000:397.165 JLINK_WriteReg(R11, 0x00000000)
T5590 000:397.172 - 0.006ms returns 0
T5590 000:397.178 JLINK_WriteReg(R12, 0x00000000)
T5590 000:397.184 - 0.005ms returns 0
T5590 000:397.191 JLINK_WriteReg(R13 (SP), 0x20001000)
T5590 000:397.197 - 0.006ms returns 0
T5590 000:397.207 JLINK_WriteReg(R14, 0x20000001)
T5590 000:397.213 - 0.005ms returns 0
T5590 000:397.220 JLINK_WriteReg(R15 (PC), 0x200000B6)
T5590 000:397.225 - 0.005ms returns 0
T5590 000:397.232 JLINK_WriteReg(XPSR, 0x01000000)
T5590 000:397.238 - 0.006ms returns 0
T5590 000:397.245 JLINK_WriteReg(MSP, 0x20001000)
T5590 000:397.251 - 0.006ms returns 0
T5590 000:397.259 JLINK_WriteReg(PSP, 0x20001000)
T5590 000:397.267 - 0.007ms returns 0
T5590 000:397.278 JLINK_WriteReg(CFBP, 0x00000000)
T5590 000:397.284 - 0.005ms returns 0
T5590 000:397.291 JLINK_SetBPEx(Addr = 0x20000000, Type = 0xFFFFFFF2)
T5590 000:397.297 - 0.006ms returns 0x00000003
T5590 000:397.304 JLINK_Go()
T5590 000:397.316   CPU_ReadMem(4 bytes @ 0xE0001000)
T5590 000:400.984 - 3.678ms 
T5590 000:401.023 JLINK_IsHalted()
T5590 000:401.604 - 0.580ms returns FALSE
T5590 000:401.633 JLINK_HasError()
T5590 000:410.681 JLINK_IsHalted()
T5590 000:414.037   CPU_ReadMem(2 bytes @ 0x20000000)
T5590 000:414.599 - 3.917ms returns TRUE
T5590 000:414.629 JLINK_ReadReg(R15 (PC))
T5590 000:414.641 - 0.011ms returns 0x20000000
T5590 000:414.651 JLINK_ClrBPEx(BPHandle = 0x00000003)
T5590 000:414.660 - 0.008ms returns 0x00
T5590 000:414.671 JLINK_ReadReg(R0)
T5590 000:414.678 - 0.007ms returns 0x00000000
T5590 000:415.452 JLINK_HasError()
T5590 000:415.474 JLINK_WriteReg(R0, 0x08000400)
T5590 000:415.484 - 0.010ms returns 0
T5590 000:415.493 JLINK_WriteReg(R1, 0x00000400)
T5590 000:415.501 - 0.008ms returns 0
T5590 000:415.511 JLINK_WriteReg(R2, 0x000000FF)
T5590 000:415.519 - 0.007ms returns 0
T5590 000:415.528 JLINK_WriteReg(R3, 0x00000000)
T5590 000:415.536 - 0.008ms returns 0
T5590 000:415.544 JLINK_WriteReg(R4, 0x00000000)
T5590 000:415.552 - 0.008ms returns 0
T5590 000:415.561 JLINK_WriteReg(R5, 0x00000000)
T5590 000:415.569 - 0.007ms returns 0
T5590 000:415.584 JLINK_WriteReg(R6, 0x00000000)
T5590 000:415.596 - 0.012ms returns 0
T5590 000:415.606 JLINK_WriteReg(R7, 0x00000000)
T5590 000:415.614 - 0.007ms returns 0
T5590 000:415.623 JLINK_WriteReg(R8, 0x00000000)
T5590 000:415.631 - 0.007ms returns 0
T5590 000:415.640 JLINK_WriteReg(R9, 0x20000160)
T5590 000:415.648 - 0.008ms returns 0
T5590 000:415.657 JLINK_WriteReg(R10, 0x00000000)
T5590 000:415.666 - 0.008ms returns 0
T5590 000:415.675 JLINK_WriteReg(R11, 0x00000000)
T5590 000:415.683 - 0.007ms returns 0
T5590 000:415.692 JLINK_WriteReg(R12, 0x00000000)
T5590 000:415.701 - 0.008ms returns 0
T5590 000:415.709 JLINK_WriteReg(R13 (SP), 0x20001000)
T5590 000:415.716 - 0.006ms returns 0
T5590 000:415.722 JLINK_WriteReg(R14, 0x20000001)
T5590 000:415.728 - 0.005ms returns 0
T5590 000:415.735 JLINK_WriteReg(R15 (PC), 0x20000020)
T5590 000:415.741 - 0.006ms returns 0
T5590 000:415.748 JLINK_WriteReg(XPSR, 0x01000000)
T5590 000:415.753 - 0.006ms returns 0
T5590 000:415.760 JLINK_WriteReg(MSP, 0x20001000)
T5590 000:415.766 - 0.005ms returns 0
T5590 000:415.773 JLINK_WriteReg(PSP, 0x20001000)
T5590 000:415.778 - 0.005ms returns 0
T5590 000:415.785 JLINK_WriteReg(CFBP, 0x00000000)
T5590 000:415.791 - 0.005ms returns 0
T5590 000:415.798 JLINK_SetBPEx(Addr = 0x20000000, Type = 0xFFFFFFF2)
T5590 000:415.805 - 0.007ms returns 0x00000004
T5590 000:415.812 JLINK_Go()
T5590 000:415.827   CPU_ReadMem(4 bytes @ 0xE0001000)
T5590 000:419.599 - 3.785ms 
T5590 000:419.627 JLINK_IsHalted()
T5590 000:422.856   CPU_ReadMem(2 bytes @ 0x20000000)
T5590 000:423.506 - 3.878ms returns TRUE
T5590 000:423.542 JLINK_ReadReg(R15 (PC))
T5590 000:423.563 - 0.020ms returns 0x20000000
T5590 000:423.580 JLINK_ClrBPEx(BPHandle = 0x00000004)
T5590 000:423.595 - 0.015ms returns 0x00
T5590 000:423.612 JLINK_ReadReg(R0)
T5590 000:423.624 - 0.012ms returns 0x00000001
T5590 000:423.639 JLINK_HasError()
T5590 000:423.657 JLINK_WriteReg(R0, 0x08000400)
T5590 000:423.668 - 0.012ms returns 0
T5590 000:423.677 JLINK_WriteReg(R1, 0x00000400)
T5590 000:423.685 - 0.008ms returns 0
T5590 000:423.694 JLINK_WriteReg(R2, 0x000000FF)
T5590 000:423.703 - 0.008ms returns 0
T5590 000:423.712 JLINK_WriteReg(R3, 0x00000000)
T5590 000:423.721 - 0.008ms returns 0
T5590 000:423.730 JLINK_WriteReg(R4, 0x00000000)
T5590 000:423.739 - 0.008ms returns 0
T5590 000:423.745 JLINK_WriteReg(R5, 0x00000000)
T5590 000:423.760 - 0.014ms returns 0
T5590 000:423.770 JLINK_WriteReg(R6, 0x00000000)
T5590 000:423.778 - 0.008ms returns 0
T5590 000:423.787 JLINK_WriteReg(R7, 0x00000000)
T5590 000:423.795 - 0.008ms returns 0
T5590 000:423.804 JLINK_WriteReg(R8, 0x00000000)
T5590 000:423.813 - 0.008ms returns 0
T5590 000:423.822 JLINK_WriteReg(R9, 0x20000160)
T5590 000:423.830 - 0.008ms returns 0
T5590 000:423.840 JLINK_WriteReg(R10, 0x00000000)
T5590 000:423.848 - 0.007ms returns 0
T5590 000:423.856 JLINK_WriteReg(R11, 0x00000000)
T5590 000:423.865 - 0.008ms returns 0
T5590 000:423.874 JLINK_WriteReg(R12, 0x00000000)
T5590 000:423.882 - 0.008ms returns 0
T5590 000:423.890 JLINK_WriteReg(R13 (SP), 0x20001000)
T5590 000:423.897 - 0.007ms returns 0
T5590 000:423.906 JLINK_WriteReg(R14, 0x20000001)
T5590 000:423.914 - 0.007ms returns 0
T5590 000:423.923 JLINK_WriteReg(R15 (PC), 0x200000B6)
T5590 000:423.931 - 0.007ms returns 0
T5590 000:423.940 JLINK_WriteReg(XPSR, 0x01000000)
T5590 000:423.948 - 0.008ms returns 0
T5590 000:423.957 JLINK_WriteReg(MSP, 0x20001000)
T5590 000:423.965 - 0.008ms returns 0
T5590 000:423.979 JLINK_WriteReg(PSP, 0x20001000)
T5590 000:423.986 - 0.006ms returns 0
T5590 000:423.993 JLINK_WriteReg(CFBP, 0x00000000)
T5590 000:424.000 - 0.006ms returns 0
T5590 000:424.009 JLINK_SetBPEx(Addr = 0x20000000, Type = 0xFFFFFFF2)
T5590 000:424.017 - 0.008ms returns 0x00000005
T5590 000:424.026 JLINK_Go()
T5590 000:424.043   CPU_ReadMem(4 bytes @ 0xE0001000)
T5590 000:427.715 - 3.688ms 
T5590 000:427.738 JLINK_IsHalted()
T5590 000:428.441 - 0.701ms returns FALSE
T5590 000:428.465 JLINK_HasError()
T5590 000:431.338 JLINK_IsHalted()
T5590 000:434.552   CPU_ReadMem(2 bytes @ 0x20000000)
T5590 000:435.088 - 3.750ms returns TRUE
T5590 000:435.105 JLINK_ReadReg(R15 (PC))
T5590 000:435.115 - 0.009ms returns 0x20000000
T5590 000:435.124 JLINK_ClrBPEx(BPHandle = 0x00000005)
T5590 000:435.133 - 0.008ms returns 0x00
T5590 000:435.142 JLINK_ReadReg(R0)
T5590 000:435.150 - 0.007ms returns 0x00000000
T5590 000:435.684 JLINK_HasError()
T5590 000:435.700 JLINK_WriteReg(R0, 0x08000800)
T5590 000:435.708 - 0.007ms returns 0
T5590 000:435.715 JLINK_WriteReg(R1, 0x00000400)
T5590 000:435.721 - 0.005ms returns 0
T5590 000:435.728 JLINK_WriteReg(R2, 0x000000FF)
T5590 000:435.733 - 0.005ms returns 0
T5590 000:435.740 JLINK_WriteReg(R3, 0x00000000)
T5590 000:435.746 - 0.006ms returns 0
T5590 000:435.753 JLINK_WriteReg(R4, 0x00000000)
T5590 000:435.759 - 0.005ms returns 0
T5590 000:435.766 JLINK_WriteReg(R5, 0x00000000)
T5590 000:435.771 - 0.005ms returns 0
T5590 000:435.778 JLINK_WriteReg(R6, 0x00000000)
T5590 000:435.784 - 0.005ms returns 0
T5590 000:435.790 JLINK_WriteReg(R7, 0x00000000)
T5590 000:435.796 - 0.005ms returns 0
T5590 000:435.803 JLINK_WriteReg(R8, 0x00000000)
T5590 000:435.809 - 0.005ms returns 0
T5590 000:435.815 JLINK_WriteReg(R9, 0x20000160)
T5590 000:435.821 - 0.005ms returns 0
T5590 000:435.828 JLINK_WriteReg(R10, 0x00000000)
T5590 000:435.834 - 0.005ms returns 0
T5590 000:435.840 JLINK_WriteReg(R11, 0x00000000)
T5590 000:435.846 - 0.005ms returns 0
T5590 000:435.853 JLINK_WriteReg(R12, 0x00000000)
T5590 000:435.859 - 0.006ms returns 0
T5590 000:435.866 JLINK_WriteReg(R13 (SP), 0x20001000)
T5590 000:435.872 - 0.006ms returns 0
T5590 000:435.878 JLINK_WriteReg(R14, 0x20000001)
T5590 000:435.884 - 0.005ms returns 0
T5590 000:435.891 JLINK_WriteReg(R15 (PC), 0x20000020)
T5590 000:435.897 - 0.005ms returns 0
T5590 000:435.904 JLINK_WriteReg(XPSR, 0x01000000)
T5590 000:435.910 - 0.005ms returns 0
T5590 000:435.916 JLINK_WriteReg(MSP, 0x20001000)
T5590 000:435.922 - 0.005ms returns 0
T5590 000:435.929 JLINK_WriteReg(PSP, 0x20001000)
T5590 000:435.935 - 0.005ms returns 0
T5590 000:435.941 JLINK_WriteReg(CFBP, 0x00000000)
T5590 000:435.947 - 0.005ms returns 0
T5590 000:435.954 JLINK_SetBPEx(Addr = 0x20000000, Type = 0xFFFFFFF2)
T5590 000:435.961 - 0.007ms returns 0x00000006
T5590 000:435.968 JLINK_Go()
T5590 000:435.981   CPU_ReadMem(4 bytes @ 0xE0001000)
T5590 000:439.733 - 3.763ms 
T5590 000:439.774 JLINK_IsHalted()
T5590 000:443.053   CPU_ReadMem(2 bytes @ 0x20000000)
T5590 000:443.624 - 3.849ms returns TRUE
T5590 000:443.659 JLINK_ReadReg(R15 (PC))
T5590 000:443.676 - 0.016ms returns 0x20000000
T5590 000:443.691 JLINK_ClrBPEx(BPHandle = 0x00000006)
T5590 000:443.702 - 0.010ms returns 0x00
T5590 000:443.715 JLINK_ReadReg(R0)
T5590 000:443.725 - 0.009ms returns 0x00000001
T5590 000:443.739 JLINK_HasError()
T5590 000:443.753 JLINK_WriteReg(R0, 0x08000800)
T5590 000:443.764 - 0.010ms returns 0
T5590 000:443.778 JLINK_WriteReg(R1, 0x00000400)
T5590 000:443.787 - 0.009ms returns 0
T5590 000:443.800 JLINK_WriteReg(R2, 0x000000FF)
T5590 000:443.810 - 0.009ms returns 0
T5590 000:443.822 JLINK_WriteReg(R3, 0x00000000)
T5590 000:443.831 - 0.009ms returns 0
T5590 000:443.844 JLINK_WriteReg(R4, 0x00000000)
T5590 000:443.857 - 0.013ms returns 0
T5590 000:443.870 JLINK_WriteReg(R5, 0x00000000)
T5590 000:443.879 - 0.009ms returns 0
T5590 000:443.892 JLINK_WriteReg(R6, 0x00000000)
T5590 000:443.901 - 0.009ms returns 0
T5590 000:443.914 JLINK_WriteReg(R7, 0x00000000)
T5590 000:443.923 - 0.009ms returns 0
T5590 000:443.936 JLINK_WriteReg(R8, 0x00000000)
T5590 000:443.946 - 0.009ms returns 0
T5590 000:443.959 JLINK_WriteReg(R9, 0x20000160)
T5590 000:443.968 - 0.009ms returns 0
T5590 000:443.981 JLINK_WriteReg(R10, 0x00000000)
T5590 000:443.991 - 0.009ms returns 0
T5590 000:444.003 JLINK_WriteReg(R11, 0x00000000)
T5590 000:444.013 - 0.009ms returns 0
T5590 000:444.026 JLINK_WriteReg(R12, 0x00000000)
T5590 000:444.035 - 0.009ms returns 0
T5590 000:444.048 JLINK_WriteReg(R13 (SP), 0x20001000)
T5590 000:444.067 - 0.019ms returns 0
T5590 000:444.078 JLINK_WriteReg(R14, 0x20000001)
T5590 000:444.087 - 0.008ms returns 0
T5590 000:444.098 JLINK_WriteReg(R15 (PC), 0x200000B6)
T5590 000:444.106 - 0.008ms returns 0
T5590 000:444.118 JLINK_WriteReg(XPSR, 0x01000000)
T5590 000:444.126 - 0.008ms returns 0
T5590 000:444.137 JLINK_WriteReg(MSP, 0x20001000)
T5590 000:444.145 - 0.008ms returns 0
T5590 000:444.156 JLINK_WriteReg(PSP, 0x20001000)
T5590 000:444.165 - 0.008ms returns 0
T5590 000:444.176 JLINK_WriteReg(CFBP, 0x00000000)
T5590 000:444.184 - 0.008ms returns 0
T5590 000:444.196 JLINK_SetBPEx(Addr = 0x20000000, Type = 0xFFFFFFF2)
T5590 000:444.205 - 0.009ms returns 0x00000007
T5590 000:444.216 JLINK_Go()
T5590 000:444.232   CPU_ReadMem(4 bytes @ 0xE0001000)
T5590 000:448.199 - 3.983ms 
T5590 000:448.224 JLINK_IsHalted()
T5590 000:448.709 - 0.485ms returns FALSE
T5590 000:448.720 JLINK_HasError()
T5590 000:451.161 JLINK_IsHalted()
T5590 000:454.452   CPU_ReadMem(2 bytes @ 0x20000000)
T5590 000:454.966 - 3.804ms returns TRUE
T5590 000:454.983 JLINK_ReadReg(R15 (PC))
T5590 000:454.996 - 0.012ms returns 0x20000000
T5590 000:455.008 JLINK_ClrBPEx(BPHandle = 0x00000007)
T5590 000:455.018 - 0.010ms returns 0x00
T5590 000:455.029 JLINK_ReadReg(R0)
T5590 000:455.039 - 0.009ms returns 0x00000000
T5590 000:455.851 JLINK_HasError()
T5590 000:455.875 JLINK_WriteReg(R0, 0x08000C00)
T5590 000:455.888 - 0.012ms returns 0
T5590 000:455.899 JLINK_WriteReg(R1, 0x00000400)
T5590 000:455.909 - 0.009ms returns 0
T5590 000:455.920 JLINK_WriteReg(R2, 0x000000FF)
T5590 000:455.929 - 0.009ms returns 0
T5590 000:455.940 JLINK_WriteReg(R3, 0x00000000)
T5590 000:455.949 - 0.009ms returns 0
T5590 000:455.960 JLINK_WriteReg(R4, 0x00000000)
T5590 000:455.969 - 0.009ms returns 0
T5590 000:455.981 JLINK_WriteReg(R5, 0x00000000)
T5590 000:455.990 - 0.009ms returns 0
T5590 000:456.001 JLINK_WriteReg(R6, 0x00000000)
T5590 000:456.010 - 0.009ms returns 0
T5590 000:456.021 JLINK_WriteReg(R7, 0x00000000)
T5590 000:456.030 - 0.009ms returns 0
T5590 000:456.041 JLINK_WriteReg(R8, 0x00000000)
T5590 000:456.051 - 0.009ms returns 0
T5590 000:456.062 JLINK_WriteReg(R9, 0x20000160)
T5590 000:456.071 - 0.008ms returns 0
T5590 000:456.077 JLINK_WriteReg(R10, 0x00000000)
T5590 000:456.084 - 0.007ms returns 0
T5590 000:456.093 JLINK_WriteReg(R11, 0x00000000)
T5590 000:456.101 - 0.008ms returns 0
T5590 000:456.110 JLINK_WriteReg(R12, 0x00000000)
T5590 000:456.118 - 0.007ms returns 0
T5590 000:456.127 JLINK_WriteReg(R13 (SP), 0x20001000)
T5590 000:456.136 - 0.009ms returns 0
T5590 000:456.145 JLINK_WriteReg(R14, 0x20000001)
T5590 000:456.154 - 0.008ms returns 0
T5590 000:456.164 JLINK_WriteReg(R15 (PC), 0x20000020)
T5590 000:456.173 - 0.009ms returns 0
T5590 000:456.181 JLINK_WriteReg(XPSR, 0x01000000)
T5590 000:456.186 - 0.006ms returns 0
T5590 000:456.193 JLINK_WriteReg(MSP, 0x20001000)
T5590 000:456.199 - 0.006ms returns 0
T5590 000:456.206 JLINK_WriteReg(PSP, 0x20001000)
T5590 000:456.212 - 0.005ms returns 0
T5590 000:456.218 JLINK_WriteReg(CFBP, 0x00000000)
T5590 000:456.224 - 0.005ms returns 0
T5590 000:456.231 JLINK_SetBPEx(Addr = 0x20000000, Type = 0xFFFFFFF2)
T5590 000:456.238 - 0.007ms returns 0x00000008
T5590 000:456.245 JLINK_Go()
T5590 000:456.263   CPU_ReadMem(4 bytes @ 0xE0001000)
T5590 000:459.959 - 3.712ms 
T5590 000:459.985 JLINK_IsHalted()
T5590 000:463.181   CPU_ReadMem(2 bytes @ 0x20000000)
T5590 000:463.720 - 3.734ms returns TRUE
T5590 000:463.733 JLINK_ReadReg(R15 (PC))
T5590 000:463.741 - 0.007ms returns 0x20000000
T5590 000:463.749 JLINK_ClrBPEx(BPHandle = 0x00000008)
T5590 000:463.755 - 0.006ms returns 0x00
T5590 000:463.762 JLINK_ReadReg(R0)
T5590 000:463.768 - 0.006ms returns 0x00000001
T5590 000:463.776 JLINK_HasError()
T5590 000:463.783 JLINK_WriteReg(R0, 0x08000C00)
T5590 000:463.789 - 0.006ms returns 0
T5590 000:463.796 JLINK_WriteReg(R1, 0x00000400)
T5590 000:463.802 - 0.005ms returns 0
T5590 000:463.809 JLINK_WriteReg(R2, 0x000000FF)
T5590 000:463.873 - 0.064ms returns 0
T5590 000:463.880 JLINK_WriteReg(R3, 0x00000000)
T5590 000:463.886 - 0.005ms returns 0
T5590 000:463.893 JLINK_WriteReg(R4, 0x00000000)
T5590 000:463.898 - 0.005ms returns 0
T5590 000:463.905 JLINK_WriteReg(R5, 0x00000000)
T5590 000:463.911 - 0.005ms returns 0
T5590 000:463.918 JLINK_WriteReg(R6, 0x00000000)
T5590 000:463.924 - 0.005ms returns 0
T5590 000:463.930 JLINK_WriteReg(R7, 0x00000000)
T5590 000:463.936 - 0.005ms returns 0
T5590 000:463.943 JLINK_WriteReg(R8, 0x00000000)
T5590 000:463.948 - 0.005ms returns 0
T5590 000:463.955 JLINK_WriteReg(R9, 0x20000160)
T5590 000:463.961 - 0.005ms returns 0
T5590 000:463.968 JLINK_WriteReg(R10, 0x00000000)
T5590 000:463.973 - 0.006ms returns 0
T5590 000:463.980 JLINK_WriteReg(R11, 0x00000000)
T5590 000:463.986 - 0.005ms returns 0
T5590 000:463.992 JLINK_WriteReg(R12, 0x00000000)
T5590 000:463.998 - 0.005ms returns 0
T5590 000:464.005 JLINK_WriteReg(R13 (SP), 0x20001000)
T5590 000:464.011 - 0.006ms returns 0
T5590 000:464.018 JLINK_WriteReg(R14, 0x20000001)
T5590 000:464.024 - 0.006ms returns 0
T5590 000:464.030 JLINK_WriteReg(R15 (PC), 0x200000B6)
T5590 000:464.036 - 0.005ms returns 0
T5590 000:464.043 JLINK_WriteReg(XPSR, 0x01000000)
T5590 000:464.049 - 0.006ms returns 0
T5590 000:464.056 JLINK_WriteReg(MSP, 0x20001000)
T5590 000:464.061 - 0.005ms returns 0
T5590 000:464.068 JLINK_WriteReg(PSP, 0x20001000)
T5590 000:464.074 - 0.006ms returns 0
T5590 000:464.081 JLINK_WriteReg(CFBP, 0x00000000)
T5590 000:464.087 - 0.005ms returns 0
T5590 000:464.094 JLINK_SetBPEx(Addr = 0x20000000, Type = 0xFFFFFFF2)
T5590 000:464.100 - 0.006ms returns 0x00000009
T5590 000:464.107 JLINK_Go()
T5590 000:464.118   CPU_ReadMem(4 bytes @ 0xE0001000)
T5590 000:467.852 - 3.744ms 
T5590 000:467.881 JLINK_IsHalted()
T5590 000:468.453 - 0.571ms returns FALSE
T5590 000:468.474 JLINK_HasError()
T5590 000:473.528 JLINK_IsHalted()
T5590 000:476.811   CPU_ReadMem(2 bytes @ 0x20000000)
T5590 000:477.350 - 3.821ms returns TRUE
T5590 000:477.384 JLINK_ReadReg(R15 (PC))
T5590 000:477.398 - 0.013ms returns 0x20000000
T5590 000:477.412 JLINK_ClrBPEx(BPHandle = 0x00000009)
T5590 000:477.423 - 0.011ms returns 0x00
T5590 000:477.436 JLINK_ReadReg(R0)
T5590 000:477.446 - 0.009ms returns 0x00000000
T5590 000:477.933 JLINK_HasError()
T5590 000:477.953 JLINK_WriteReg(R0, 0x00000001)
T5590 000:477.963 - 0.010ms returns 0
T5590 000:477.973 JLINK_WriteReg(R1, 0x00000400)
T5590 000:477.982 - 0.008ms returns 0
T5590 000:477.991 JLINK_WriteReg(R2, 0x000000FF)
T5590 000:477.999 - 0.008ms returns 0
T5590 000:478.009 JLINK_WriteReg(R3, 0x00000000)
T5590 000:478.017 - 0.008ms returns 0
T5590 000:478.027 JLINK_WriteReg(R4, 0x00000000)
T5590 000:478.035 - 0.008ms returns 0
T5590 000:478.045 JLINK_WriteReg(R5, 0x00000000)
T5590 000:478.066 - 0.021ms returns 0
T5590 000:478.080 JLINK_WriteReg(R6, 0x00000000)
T5590 000:478.089 - 0.008ms returns 0
T5590 000:478.099 JLINK_WriteReg(R7, 0x00000000)
T5590 000:478.107 - 0.008ms returns 0
T5590 000:478.116 JLINK_WriteReg(R8, 0x00000000)
T5590 000:478.124 - 0.008ms returns 0
T5590 000:478.134 JLINK_WriteReg(R9, 0x20000160)
T5590 000:478.142 - 0.008ms returns 0
T5590 000:478.151 JLINK_WriteReg(R10, 0x00000000)
T5590 000:478.160 - 0.008ms returns 0
T5590 000:478.169 JLINK_WriteReg(R11, 0x00000000)
T5590 000:478.178 - 0.008ms returns 0
T5590 000:478.365 JLINK_WriteReg(R12, 0x00000000)
T5590 000:478.380 - 0.015ms returns 0
T5590 000:478.390 JLINK_WriteReg(R13 (SP), 0x20001000)
T5590 000:478.399 - 0.008ms returns 0
T5590 000:478.408 JLINK_WriteReg(R14, 0x20000001)
T5590 000:478.417 - 0.009ms returns 0
T5590 000:478.440 JLINK_WriteReg(R15 (PC), 0x2000006A)
T5590 000:478.456 - 0.015ms returns 0
T5590 000:478.470 JLINK_WriteReg(XPSR, 0x01000000)
T5590 000:478.483 - 0.013ms returns 0
T5590 000:478.497 JLINK_WriteReg(MSP, 0x20001000)
T5590 000:478.511 - 0.013ms returns 0
T5590 000:478.524 JLINK_WriteReg(PSP, 0x20001000)
T5590 000:478.536 - 0.012ms returns 0
T5590 000:478.566 JLINK_WriteReg(CFBP, 0x00000000)
T5590 000:478.578 - 0.011ms returns 0
T5590 000:478.593 JLINK_SetBPEx(Addr = 0x20000000, Type = 0xFFFFFFF2)
T5590 000:478.677 - 0.084ms returns 0x0000000A
T5590 000:478.695 JLINK_Go()
T5590 000:478.721   CPU_ReadMem(4 bytes @ 0xE0001000)
T5590 000:482.576 - 3.880ms 
T5590 000:482.606 JLINK_IsHalted()
T5590 000:485.987   CPU_ReadMem(2 bytes @ 0x20000000)
T5590 000:486.594 - 3.987ms returns TRUE
T5590 000:486.613 JLINK_ReadReg(R15 (PC))
T5590 000:486.625 - 0.012ms returns 0x20000000
T5590 000:486.637 JLINK_ClrBPEx(BPHandle = 0x0000000A)
T5590 000:486.647 - 0.010ms returns 0x00
T5590 000:486.659 JLINK_ReadReg(R0)
T5590 000:486.669 - 0.010ms returns 0x00000000
T5590 000:544.880 JLINK_WriteMem(0x20000000, 0x164 Bytes, ...)
T5590 000:544.898   Data:  00 BE 0A E0 0D 78 2D 06 68 40 08 24 40 00 00 D3 ...
T5590 000:544.924   CPU_WriteMem(356 bytes @ 0x20000000)
T5590 000:547.525 - 2.644ms returns 0x164
T5590 000:547.603 JLINK_HasError()
T5590 000:547.619 JLINK_WriteReg(R0, 0x08000000)
T5590 000:547.634 - 0.014ms returns 0
T5590 000:547.645 JLINK_WriteReg(R1, 0x007A1200)
T5590 000:547.655 - 0.010ms returns 0
T5590 000:547.666 JLINK_WriteReg(R2, 0x00000002)
T5590 000:547.676 - 0.009ms returns 0
T5590 000:547.687 JLINK_WriteReg(R3, 0x00000000)
T5590 000:547.700 - 0.013ms returns 0
T5590 000:547.716 JLINK_WriteReg(R4, 0x00000000)
T5590 000:547.730 - 0.014ms returns 0
T5590 000:547.746 JLINK_WriteReg(R5, 0x00000000)
T5590 000:547.761 - 0.014ms returns 0
T5590 000:547.776 JLINK_WriteReg(R6, 0x00000000)
T5590 000:547.791 - 0.014ms returns 0
T5590 000:547.804 JLINK_WriteReg(R7, 0x00000000)
T5590 000:547.813 - 0.009ms returns 0
T5590 000:547.824 JLINK_WriteReg(R8, 0x00000000)
T5590 000:547.833 - 0.009ms returns 0
T5590 000:547.849 JLINK_WriteReg(R9, 0x20000160)
T5590 000:547.858 - 0.009ms returns 0
T5590 000:547.869 JLINK_WriteReg(R10, 0x00000000)
T5590 000:547.878 - 0.009ms returns 0
T5590 000:547.889 JLINK_WriteReg(R11, 0x00000000)
T5590 000:547.899 - 0.009ms returns 0
T5590 000:547.909 JLINK_WriteReg(R12, 0x00000000)
T5590 000:547.919 - 0.009ms returns 0
T5590 000:547.930 JLINK_WriteReg(R13 (SP), 0x20001000)
T5590 000:547.940 - 0.010ms returns 0
T5590 000:547.951 JLINK_WriteReg(R14, 0x20000001)
T5590 000:547.960 - 0.009ms returns 0
T5590 000:547.971 JLINK_WriteReg(R15 (PC), 0x20000038)
T5590 000:547.981 - 0.009ms returns 0
T5590 000:547.992 JLINK_WriteReg(XPSR, 0x01000000)
T5590 000:548.002 - 0.009ms returns 0
T5590 000:548.013 JLINK_WriteReg(MSP, 0x20001000)
T5590 000:548.022 - 0.009ms returns 0
T5590 000:548.033 JLINK_WriteReg(PSP, 0x20001000)
T5590 000:548.043 - 0.009ms returns 0
T5590 000:548.054 JLINK_WriteReg(CFBP, 0x00000000)
T5590 000:548.063 - 0.009ms returns 0
T5590 000:548.075 JLINK_SetBPEx(Addr = 0x20000000, Type = 0xFFFFFFF2)
T5590 000:548.092   CPU_ReadMem(2 bytes @ 0x20000000)
T5590 000:548.713 - 0.639ms returns 0x0000000B
T5590 000:548.724 JLINK_Go()
T5590 000:548.732   CPU_WriteMem(2 bytes @ 0x20000000)
T5590 000:549.221   CPU_ReadMem(4 bytes @ 0xE0001000)
T5590 000:552.821 - 4.096ms 
T5590 000:552.842 JLINK_IsHalted()
T5590 000:555.997   CPU_ReadMem(2 bytes @ 0x20000000)
T5590 000:556.620 - 3.776ms returns TRUE
T5590 000:556.660 JLINK_ReadReg(R15 (PC))
T5590 000:556.688 - 0.027ms returns 0x20000000
T5590 000:556.711 JLINK_ClrBPEx(BPHandle = 0x0000000B)
T5590 000:556.726 - 0.014ms returns 0x00
T5590 000:556.745 JLINK_ReadReg(R0)
T5590 000:556.760 - 0.014ms returns 0x00000000
T5590 000:557.180 JLINK_WriteMem(0x20000164, 0x29C Bytes, ...)
T5590 000:557.193   Data:  78 06 00 20 B5 01 00 08 B9 0C 00 08 F9 0B 00 08 ...
T5590 000:557.213   CPU_WriteMem(668 bytes @ 0x20000164)
T5590 000:561.351 - 4.170ms returns 0x29C
T5590 000:561.377 JLINK_WriteMem(0x20000400, 0x164 Bytes, ...)
T5590 000:561.386   Data:  FA D3 B0 BD 2D E9 F0 4F 82 B0 0E 68 00 2E 00 F0 ...
T5590 000:561.411   CPU_WriteMem(356 bytes @ 0x20000400)
T5590 000:563.971 - 2.594ms returns 0x164
T5590 000:563.993 JLINK_HasError()
T5590 000:564.008 JLINK_WriteReg(R0, 0x08000000)
T5590 000:564.017 - 0.008ms returns 0
T5590 000:564.024 JLINK_WriteReg(R1, 0x00000400)
T5590 000:564.030 - 0.006ms returns 0
T5590 000:564.039 JLINK_WriteReg(R2, 0x20000164)
T5590 000:564.045 - 0.005ms returns 0
T5590 000:564.052 JLINK_WriteReg(R3, 0x00000000)
T5590 000:564.058 - 0.005ms returns 0
T5590 000:564.065 JLINK_WriteReg(R4, 0x00000000)
T5590 000:564.071 - 0.005ms returns 0
T5590 000:564.077 JLINK_WriteReg(R5, 0x00000000)
T5590 000:564.083 - 0.005ms returns 0
T5590 000:564.089 JLINK_WriteReg(R6, 0x00000000)
T5590 000:564.095 - 0.005ms returns 0
T5590 000:564.102 JLINK_WriteReg(R7, 0x00000000)
T5590 000:564.107 - 0.005ms returns 0
T5590 000:564.114 JLINK_WriteReg(R8, 0x00000000)
T5590 000:564.120 - 0.005ms returns 0
T5590 000:564.126 JLINK_WriteReg(R9, 0x20000160)
T5590 000:564.132 - 0.005ms returns 0
T5590 000:564.139 JLINK_WriteReg(R10, 0x00000000)
T5590 000:564.145 - 0.005ms returns 0
T5590 000:564.151 JLINK_WriteReg(R11, 0x00000000)
T5590 000:564.157 - 0.005ms returns 0
T5590 000:564.164 JLINK_WriteReg(R12, 0x00000000)
T5590 000:564.169 - 0.005ms returns 0
T5590 000:564.176 JLINK_WriteReg(R13 (SP), 0x20001000)
T5590 000:564.182 - 0.006ms returns 0
T5590 000:564.189 JLINK_WriteReg(R14, 0x20000001)
T5590 000:564.195 - 0.005ms returns 0
T5590 000:564.202 JLINK_WriteReg(R15 (PC), 0x200000F4)
T5590 000:564.207 - 0.005ms returns 0
T5590 000:564.214 JLINK_WriteReg(XPSR, 0x01000000)
T5590 000:564.220 - 0.006ms returns 0
T5590 000:564.227 JLINK_WriteReg(MSP, 0x20001000)
T5590 000:564.233 - 0.005ms returns 0
T5590 000:564.239 JLINK_WriteReg(PSP, 0x20001000)
T5590 000:564.245 - 0.005ms returns 0
T5590 000:564.252 JLINK_WriteReg(CFBP, 0x00000000)
T5590 000:564.257 - 0.005ms returns 0
T5590 000:564.264 JLINK_SetBPEx(Addr = 0x20000000, Type = 0xFFFFFFF2)
T5590 000:564.272 - 0.007ms returns 0x0000000C
T5590 000:564.278 JLINK_Go()
T5590 000:564.292   CPU_ReadMem(4 bytes @ 0xE0001000)
T5590 000:567.977 - 3.697ms 
T5590 000:567.998 JLINK_IsHalted()
T5590 000:568.586 - 0.588ms returns FALSE
T5590 000:568.600 JLINK_HasError()
T5590 000:571.025 JLINK_IsHalted()
T5590 000:571.610 - 0.584ms returns FALSE
T5590 000:571.635 JLINK_HasError()
T5590 000:573.595 JLINK_IsHalted()
T5590 000:574.215 - 0.620ms returns FALSE
T5590 000:574.233 JLINK_HasError()
T5590 000:575.590 JLINK_IsHalted()
T5590 000:576.223 - 0.632ms returns FALSE
T5590 000:576.239 JLINK_HasError()
T5590 000:577.594 JLINK_IsHalted()
T5590 000:578.319 - 0.725ms returns FALSE
T5590 000:578.351 JLINK_HasError()
T5590 000:579.602 JLINK_IsHalted()
T5590 000:583.003   CPU_ReadMem(2 bytes @ 0x20000000)
T5590 000:583.595 - 3.992ms returns TRUE
T5590 000:583.617 JLINK_ReadReg(R15 (PC))
T5590 000:583.631 - 0.013ms returns 0x20000000
T5590 000:583.645 JLINK_ClrBPEx(BPHandle = 0x0000000C)
T5590 000:583.656 - 0.010ms returns 0x00
T5590 000:583.669 JLINK_ReadReg(R0)
T5590 000:583.679 - 0.010ms returns 0x00000000
T5590 000:584.687 JLINK_WriteMem(0x20000164, 0x29C Bytes, ...)
T5590 000:584.706   Data:  C0 F8 14 B0 C0 F8 10 B0 4F F0 08 09 14 E0 00 BF ...
T5590 000:584.728   CPU_WriteMem(668 bytes @ 0x20000164)
T5590 000:588.970 - 4.282ms returns 0x29C
T5590 000:588.996 JLINK_WriteMem(0x20000400, 0x164 Bytes, ...)
T5590 000:589.007   Data:  0C D9 D8 F8 00 00 20 F0 07 00 28 43 C8 F8 00 00 ...
T5590 000:589.030   CPU_WriteMem(356 bytes @ 0x20000400)
T5590 000:591.554 - 2.557ms returns 0x164
T5590 000:591.583 JLINK_HasError()
T5590 000:591.596 JLINK_WriteReg(R0, 0x08000400)
T5590 000:591.617 - 0.020ms returns 0
T5590 000:591.641 JLINK_WriteReg(R1, 0x00000400)
T5590 000:591.652 - 0.011ms returns 0
T5590 000:591.663 JLINK_WriteReg(R2, 0x20000164)
T5590 000:591.673 - 0.009ms returns 0
T5590 000:591.684 JLINK_WriteReg(R3, 0x00000000)
T5590 000:591.693 - 0.009ms returns 0
T5590 000:591.704 JLINK_WriteReg(R4, 0x00000000)
T5590 000:591.713 - 0.009ms returns 0
T5590 000:591.751 JLINK_WriteReg(R5, 0x00000000)
T5590 000:591.761 - 0.010ms returns 0
T5590 000:591.781 JLINK_WriteReg(R6, 0x00000000)
T5590 000:591.795 - 0.014ms returns 0
T5590 000:591.806 JLINK_WriteReg(R7, 0x00000000)
T5590 000:591.815 - 0.009ms returns 0
T5590 000:591.826 JLINK_WriteReg(R8, 0x00000000)
T5590 000:591.835 - 0.009ms returns 0
T5590 000:591.846 JLINK_WriteReg(R9, 0x20000160)
T5590 000:591.855 - 0.009ms returns 0
T5590 000:591.866 JLINK_WriteReg(R10, 0x00000000)
T5590 000:591.876 - 0.009ms returns 0
T5590 000:591.887 JLINK_WriteReg(R11, 0x00000000)
T5590 000:591.896 - 0.009ms returns 0
T5590 000:591.907 JLINK_WriteReg(R12, 0x00000000)
T5590 000:591.916 - 0.009ms returns 0
T5590 000:591.927 JLINK_WriteReg(R13 (SP), 0x20001000)
T5590 000:591.937 - 0.010ms returns 0
T5590 000:591.948 JLINK_WriteReg(R14, 0x20000001)
T5590 000:591.957 - 0.009ms returns 0
T5590 000:591.968 JLINK_WriteReg(R15 (PC), 0x200000F4)
T5590 000:591.977 - 0.009ms returns 0
T5590 000:591.988 JLINK_WriteReg(XPSR, 0x01000000)
T5590 000:591.998 - 0.009ms returns 0
T5590 000:592.009 JLINK_WriteReg(MSP, 0x20001000)
T5590 000:592.018 - 0.009ms returns 0
T5590 000:592.029 JLINK_WriteReg(PSP, 0x20001000)
T5590 000:592.038 - 0.009ms returns 0
T5590 000:592.049 JLINK_WriteReg(CFBP, 0x00000000)
T5590 000:592.059 - 0.009ms returns 0
T5590 000:592.073 JLINK_SetBPEx(Addr = 0x20000000, Type = 0xFFFFFFF2)
T5590 000:592.091 - 0.017ms returns 0x0000000D
T5590 000:592.102 JLINK_Go()
T5590 000:592.123   CPU_ReadMem(4 bytes @ 0xE0001000)
T5590 000:595.846 - 3.742ms 
T5590 000:595.872 JLINK_IsHalted()
T5590 000:596.457 - 0.584ms returns FALSE
T5590 000:596.469 JLINK_HasError()
T5590 000:598.949 JLINK_IsHalted()
T5590 000:599.460 - 0.510ms returns FALSE
T5590 000:599.475 JLINK_HasError()
T5590 000:601.205 JLINK_IsHalted()
T5590 000:601.842 - 0.637ms returns FALSE
T5590 000:601.865 JLINK_HasError()
T5590 000:603.350 JLINK_IsHalted()
T5590 000:603.962 - 0.611ms returns FALSE
T5590 000:603.986 JLINK_HasError()
T5590 000:605.584 JLINK_IsHalted()
T5590 000:606.224 - 0.639ms returns FALSE
T5590 000:606.256 JLINK_HasError()
T5590 000:607.734 JLINK_IsHalted()
T5590 000:611.005   CPU_ReadMem(2 bytes @ 0x20000000)
T5590 000:611.590 - 3.855ms returns TRUE
T5590 000:611.612 JLINK_ReadReg(R15 (PC))
T5590 000:611.629 - 0.016ms returns 0x20000000
T5590 000:611.648 JLINK_ClrBPEx(BPHandle = 0x0000000D)
T5590 000:611.663 - 0.015ms returns 0x00
T5590 000:611.685 JLINK_ReadReg(R0)
T5590 000:611.699 - 0.014ms returns 0x00000000
T5590 000:612.519 JLINK_WriteMem(0x20000164, 0x29C Bytes, ...)
T5590 000:612.533   Data:  00 F0 46 81 20 78 80 07 1B D5 70 68 10 F0 0C 0F ...
T5590 000:612.550   CPU_WriteMem(668 bytes @ 0x20000164)
T5590 000:616.790 - 4.270ms returns 0x29C
T5590 000:616.817 JLINK_WriteMem(0x20000400, 0x164 Bytes, ...)
T5590 000:616.827   Data:  30 62 30 6A 40 F0 01 00 1E E0 00 BF 20 F0 01 00 ...
T5590 000:616.849   CPU_WriteMem(356 bytes @ 0x20000400)
T5590 000:619.848 - 3.030ms returns 0x164
T5590 000:619.876 JLINK_HasError()
T5590 000:619.889 JLINK_WriteReg(R0, 0x08000800)
T5590 000:619.902 - 0.013ms returns 0
T5590 000:619.913 JLINK_WriteReg(R1, 0x00000400)
T5590 000:619.923 - 0.010ms returns 0
T5590 000:619.934 JLINK_WriteReg(R2, 0x20000164)
T5590 000:619.944 - 0.010ms returns 0
T5590 000:619.955 JLINK_WriteReg(R3, 0x00000000)
T5590 000:619.965 - 0.009ms returns 0
T5590 000:619.975 JLINK_WriteReg(R4, 0x00000000)
T5590 000:619.985 - 0.009ms returns 0
T5590 000:619.995 JLINK_WriteReg(R5, 0x00000000)
T5590 000:620.005 - 0.009ms returns 0
T5590 000:620.016 JLINK_WriteReg(R6, 0x00000000)
T5590 000:620.025 - 0.009ms returns 0
T5590 000:620.036 JLINK_WriteReg(R7, 0x00000000)
T5590 000:620.045 - 0.009ms returns 0
T5590 000:620.057 JLINK_WriteReg(R8, 0x00000000)
T5590 000:620.066 - 0.009ms returns 0
T5590 000:620.077 JLINK_WriteReg(R9, 0x20000160)
T5590 000:620.086 - 0.009ms returns 0
T5590 000:620.097 JLINK_WriteReg(R10, 0x00000000)
T5590 000:620.107 - 0.009ms returns 0
T5590 000:620.117 JLINK_WriteReg(R11, 0x00000000)
T5590 000:620.127 - 0.009ms returns 0
T5590 000:620.138 JLINK_WriteReg(R12, 0x00000000)
T5590 000:620.159 - 0.021ms returns 0
T5590 000:620.170 JLINK_WriteReg(R13 (SP), 0x20001000)
T5590 000:620.180 - 0.010ms returns 0
T5590 000:620.191 JLINK_WriteReg(R14, 0x20000001)
T5590 000:620.201 - 0.009ms returns 0
T5590 000:620.212 JLINK_WriteReg(R15 (PC), 0x200000F4)
T5590 000:620.222 - 0.010ms returns 0
T5590 000:620.233 JLINK_WriteReg(XPSR, 0x01000000)
T5590 000:620.242 - 0.009ms returns 0
T5590 000:620.253 JLINK_WriteReg(MSP, 0x20001000)
T5590 000:620.263 - 0.009ms returns 0
T5590 000:620.274 JLINK_WriteReg(PSP, 0x20001000)
T5590 000:620.283 - 0.009ms returns 0
T5590 000:620.294 JLINK_WriteReg(CFBP, 0x00000000)
T5590 000:620.303 - 0.009ms returns 0
T5590 000:620.315 JLINK_SetBPEx(Addr = 0x20000000, Type = 0xFFFFFFF2)
T5590 000:620.326 - 0.011ms returns 0x0000000E
T5590 000:620.337 JLINK_Go()
T5590 000:620.357   CPU_ReadMem(4 bytes @ 0xE0001000)
T5590 000:624.293 - 3.955ms 
T5590 000:624.315 JLINK_IsHalted()
T5590 000:624.838 - 0.522ms returns FALSE
T5590 000:624.853 JLINK_HasError()
T5590 000:625.938 JLINK_IsHalted()
T5590 000:626.463 - 0.524ms returns FALSE
T5590 000:626.476 JLINK_HasError()
T5590 000:627.943 JLINK_IsHalted()
T5590 000:628.781 - 0.837ms returns FALSE
T5590 000:628.808 JLINK_HasError()
T5590 000:630.358 JLINK_IsHalted()
T5590 000:630.963 - 0.604ms returns FALSE
T5590 000:630.980 JLINK_HasError()
T5590 000:632.368 JLINK_IsHalted()
T5590 000:632.967 - 0.598ms returns FALSE
T5590 000:632.993 JLINK_HasError()
T5590 000:634.955 JLINK_IsHalted()
T5590 000:635.460 - 0.505ms returns FALSE
T5590 000:635.476 JLINK_HasError()
T5590 000:637.225 JLINK_IsHalted()
T5590 000:640.568   CPU_ReadMem(2 bytes @ 0x20000000)
T5590 000:641.089 - 3.864ms returns TRUE
T5590 000:641.113 JLINK_ReadReg(R15 (PC))
T5590 000:641.121 - 0.008ms returns 0x20000000
T5590 000:641.130 JLINK_ClrBPEx(BPHandle = 0x0000000E)
